time	V(a1)	V(vout)	V(vouts2)	V(n001)
0.000000000000000e+000	9.500000e-003	-3.552392e+000	-3.552427e+000	9.500000e-003
9.999999717180685e-010	9.500000e-003	-3.552392e+000	-3.552427e+000	9.500000e-003
1.999999943436137e-009	9.500000e-003	-3.552392e+000	-3.552427e+000	9.500000e-003
3.999999886872274e-009	9.500000e-003	-3.552392e+000	-3.552427e+000	9.500000e-003
7.999999773744548e-009	9.500000e-003	-3.552392e+000	-3.552427e+000	9.500000e-003
1.599999954748910e-008	9.500000e-003	-3.552392e+000	-3.552427e+000	9.500000e-003
3.199999909497819e-008	9.500000e-003	-3.552392e+000	-3.552427e+000	9.500000e-003
6.399999818995639e-008	9.500000e-003	-3.552392e+000	-3.552427e+000	9.500000e-003
1.279999963799128e-007	9.500000e-003	-3.552392e+000	-3.552427e+000	9.500000e-003
2.559999927598256e-007	9.500000e-003	-3.552392e+000	-3.552427e+000	9.500000e-003
5.119999855196511e-007	9.500000e-003	-3.552392e+000	-3.552427e+000	9.500000e-003
1.023999971039302e-006	9.500000e-003	-3.552392e+000	-3.552427e+000	9.500000e-003
2.047999942078604e-006	9.500001e-003	-3.552392e+000	-3.552427e+000	9.500000e-003
4.095999884157209e-006	9.500001e-003	-3.552392e+000	-3.552427e+000	9.500001e-003
1.638399953662884e-005	9.500002e-003	-3.552392e+000	-3.552425e+000	9.500001e-003
9.601023728464501e-003	9.500862e-003	-3.552392e+000	-3.551198e+000	9.500496e-003
1.918566345739237e-002	9.501722e-003	-3.552392e+000	-3.549964e+000	9.500992e-003
2.877030318632024e-002	9.502583e-003	-3.552392e+000	-3.548722e+000	9.501487e-003
3.835494291524812e-002	9.503442e-003	-3.552392e+000	-3.547473e+000	9.501982e-003
4.793958264417599e-002	9.504302e-003	-3.552392e+000	-3.546216e+000	9.502478e-003
5.752422237310386e-002	9.505162e-003	-3.552392e+000	-3.544951e+000	9.502973e-003
6.710886210203171e-002	9.506021e-003	-3.552392e+000	-3.543679e+000	9.503468e-003
1.342177242040634e-001	9.512022e-003	-3.552392e+000	-3.534589e+000	9.506936e-003
2.684354484081268e-001	9.523897e-003	-3.552391e+000	-3.515664e+000	9.513873e-003
4.940117342281473e-001	9.543131e-003	-3.552389e+000	-3.482611e+000	9.525530e-003
7.901476571102890e-001	9.566124e-003	-3.552385e+000	-3.438421e+000	9.540833e-003
9.277060846583420e-001	9.575649e-003	-3.552381e+000	-3.418097e+000	9.547940e-003
1.027366224132692e+000	9.582028e-003	-3.552377e+000	-3.403754e+000	9.553090e-003
1.101770396702967e+000	9.586490e-003	-3.552374e+000	-3.393364e+000	9.556934e-003
1.184167309338549e+000	9.591122e-003	-3.552370e+000	-3.382257e+000	9.561191e-003
1.283565930743956e+000	9.596275e-003	-3.552364e+000	-3.369426e+000	9.566327e-003
1.386673317168862e+000	9.601118e-003	-3.552356e+000	-3.356965e+000	9.571653e-003
1.554023761697661e+000	9.607911e-003	-3.552342e+000	-3.338944e+000	9.580297e-003
1.821780899341785e+000	9.616252e-003	-3.552312e+000	-3.314601e+000	9.594127e-003
2.031936971627252e+000	9.620981e-003	-3.552284e+000	-3.299311e+000	9.604978e-003
2.164751742543598e+000	9.623354e-003	-3.552263e+000	-3.291838e+000	9.611836e-003
2.336131359127132e+000	9.625953e-003	-3.552233e+000	-3.284780e+000	9.620682e-003
2.607215973883374e+000	9.629672e-003	-3.552176e+000	-3.278484e+000	9.634674e-003
2.764004460138273e+000	9.632014e-003	-3.552137e+000	-3.276884e+000	9.642764e-003
3.015658890662694e+000	9.636745e-003	-3.552069e+000	-3.275645e+000	9.655746e-003
3.257024161820355e+000	9.643075e-003	-3.551998e+000	-3.274901e+000	9.668192e-003
3.486590965252601e+000	9.651256e-003	-3.551923e+000	-3.273374e+000	9.680026e-003
3.735996904894726e+000	9.662892e-003	-3.551832e+000	-3.268713e+000	9.692879e-003
3.824782498630921e+000	9.667755e-003	-3.551798e+000	-3.265968e+000	9.697453e-003
3.969119615677975e+000	9.676460e-003	-3.551739e+000	-3.259827e+000	9.704888e-003
4.201559184577741e+000	9.692444e-003	-3.551639e+000	-3.245997e+000	9.716856e-003
4.480826987514578e+000	9.714386e-003	-3.551511e+000	-3.224120e+000	9.731229e-003
4.614173052700311e+000	9.725669e-003	-3.551446e+000	-3.211290e+000	9.738090e-003
4.871730324164588e+000	9.748341e-003	-3.551311e+000	-3.180976e+000	9.751335e-003
5.156025990948747e+000	9.773684e-003	-3.551148e+000	-3.141389e+000	9.765946e-003
5.357962678512761e+000	9.791152e-003	-3.551022e+000	-3.110746e+000	9.776319e-003
5.818824770727621e+000	9.826738e-003	-3.550709e+000	-3.038890e+000	9.799973e-003
6.028419266099577e+000	9.839726e-003	-3.550550e+000	-3.006587e+000	9.810723e-003
6.238013761471533e+000	9.850939e-003	-3.550379e+000	-2.977809e+000	9.821466e-003
6.447608256843489e+000	9.860377e-003	-3.550196e+000	-2.952555e+000	9.832202e-003
6.657202752215445e+000	9.868039e-003	-3.550002e+000	-2.930825e+000	9.842932e-003
6.866797247587402e+000	9.873926e-003	-3.549795e+000	-2.912619e+000	9.853655e-003
7.076391742959358e+000	9.878038e-003	-3.549577e+000	-2.897937e+000	9.864372e-003
7.285986238331314e+000	9.880375e-003	-3.549347e+000	-2.886779e+000	9.875081e-003
7.562348605813107e+000	9.884017e-003	-3.549021e+000	-2.878494e+000	9.889192e-003
8.179500783105068e+000	9.896137e-003	-3.548215e+000	-2.870968e+000	9.920655e-003
8.476662277816203e+000	9.906618e-003	-3.547790e+000	-2.866866e+000	9.935779e-003
8.729705983950886e+000	9.918751e-003	-3.547406e+000	-2.859773e+000	9.948646e-003
9.033334586224395e+000	9.937313e-003	-3.546920e+000	-2.843858e+000	9.964067e-003
9.331601113691676e+000	9.959356e-003	-3.546422e+000	-2.821276e+000	9.979198e-003
9.586212874938408e+000	9.980430e-003	-3.545977e+000	-2.795840e+000	9.992098e-003
9.680918991409092e+000	9.988742e-003	-3.545806e+000	-2.784367e+000	9.996894e-003
9.775625107879774e+000	9.997047e-003	-3.545633e+000	-2.772271e+000	1.000169e-002
9.870331224350458e+000	1.000534e-002	-3.545456e+000	-2.759551e+000	1.000648e-002
9.965037340821143e+000	1.001363e-002	-3.545276e+000	-2.746208e+000	1.001127e-002
1.005974345729183e+001	1.002191e-002	-3.545093e+000	-2.732241e+000	1.001606e-002
1.015444957376251e+001	1.003019e-002	-3.544907e+000	-2.717650e+000	1.002084e-002
1.024915569023319e+001	1.003845e-002	-3.544717e+000	-2.702435e+000	1.002562e-002
1.053512171132383e+001	1.006168e-002	-3.544132e+000	-2.656251e+000	1.004006e-002
1.080042772161936e+001	1.008070e-002	-3.543565e+000	-2.613212e+000	1.005343e-002
1.096681201170081e+001	1.009109e-002	-3.543195e+000	-2.587226e+000	1.006180e-002
1.107894740533395e+001	1.009736e-002	-3.542939e+000	-2.570503e+000	1.006744e-002
1.118425080210306e+001	1.010269e-002	-3.542694e+000	-2.555460e+000	1.007274e-002
1.128716673211770e+001	1.010738e-002	-3.542451e+000	-2.541665e+000	1.007791e-002
1.145421064984630e+001	1.011393e-002	-3.542044e+000	-2.521495e+000	1.008630e-002
1.172150316338162e+001	1.012187e-002	-3.541375e+000	-2.493439e+000	1.009971e-002
1.188846381043816e+001	1.012549e-002	-3.540944e+000	-2.478727e+000	1.010808e-002
1.200623612299468e+001	1.012755e-002	-3.540633e+000	-2.470125e+000	1.011398e-002
1.209298311753272e+001	1.012887e-002	-3.540400e+000	-2.464692e+000	1.011832e-002
1.226187158122992e+001	1.013110e-002	-3.539936e+000	-2.456096e+000	1.012676e-002
1.243721463636171e+001	1.013320e-002	-3.539441e+000	-2.449534e+000	1.013552e-002
1.273214424611261e+001	1.013714e-002	-3.538576e+000	-2.442626e+000	1.015024e-002
1.302249661022821e+001	1.014277e-002	-3.537696e+000	-2.437911e+000	1.016470e-002
1.316632180140926e+001	1.014657e-002	-3.537249e+000	-2.435695e+000	1.017186e-002
1.326994831972331e+001	1.014982e-002	-3.536921e+000	-2.433914e+000	1.017701e-002
1.334709765089565e+001	1.015255e-002	-3.536673e+000	-2.432343e+000	1.018084e-002
1.343464554926975e+001	1.015597e-002	-3.536389e+000	-2.430210e+000	1.018519e-002
1.353606580028438e+001	1.016037e-002	-3.536056e+000	-2.427269e+000	1.019023e-002
1.362053410964523e+001	1.016442e-002	-3.535776e+000	-2.424362e+000	1.019442e-002
1.369898408109877e+001	1.016848e-002	-3.535513e+000	-2.421120e+000	1.019831e-002
1.382662168774411e+001	1.017572e-002	-3.535078e+000	-2.414574e+000	1.020463e-002
1.403294160530098e+001	1.018899e-002	-3.534362e+000	-2.400791e+000	1.021484e-002
1.431689890087716e+001	1.021005e-002	-3.533355e+000	-2.376872e+000	1.022888e-002
1.444085661369621e+001	1.022006e-002	-3.532907e+000	-2.364322e+000	1.023500e-002
1.453170454997715e+001	1.022763e-002	-3.532573e+000	-2.353870e+000	1.023948e-002
1.468641820725536e+001	1.024086e-002	-3.531996e+000	-2.334213e+000	1.024710e-002
1.493256983172512e+001	1.026230e-002	-3.531057e+000	-2.298934e+000	1.025922e-002
1.526002672033551e+001	1.029017e-002	-3.529763e+000	-2.246293e+000	1.027530e-002
1.554625905607282e+001	1.031249e-002	-3.528599e+000	-2.198345e+000	1.028934e-002
1.575921558918667e+001	1.032716e-002	-3.527710e+000	-2.162741e+000	1.029976e-002
1.599839130008972e+001	1.034124e-002	-3.526683e+000	-2.124604e+000	1.031144e-002
1.615730082321263e+001	1.034908e-002	-3.525985e+000	-2.101125e+000	1.031919e-002
1.627435101903656e+001	1.035407e-002	-3.525461e+000	-2.085204e+000	1.032490e-002
1.646393016869814e+001	1.036079e-002	-3.524596e+000	-2.062236e+000	1.033412e-002
1.676491163137709e+001	1.036837e-002	-3.523196e+000	-2.030799e+000	1.034875e-002
1.705944983566231e+001	1.037301e-002	-3.521781e+000	-2.007988e+000	1.036303e-002
1.720996454184126e+001	1.037436e-002	-3.521038e+000	-2.000408e+000	1.037031e-002
1.736047924802022e+001	1.037601e-002	-3.520283e+000	-1.993779e+000	1.037759e-002
1.751099395419917e+001	1.037795e-002	-3.519518e+000	-1.988100e+000	1.038485e-002
1.766150866037812e+001	1.038018e-002	-3.518741e+000	-1.983372e+000	1.039211e-002
1.781202336655708e+001	1.038270e-002	-3.517953e+000	-1.979593e+000	1.039936e-002
1.796253807273603e+001	1.038551e-002	-3.517154e+000	-1.976765e+000	1.040660e-002
1.811305277891498e+001	1.038862e-002	-3.516345e+000	-1.974887e+000	1.041383e-002
1.834771905553921e+001	1.039681e-002	-3.515058e+000	-1.970478e+000	1.042509e-002
1.858238533216344e+001	1.040712e-002	-3.513744e+000	-1.961557e+000	1.043632e-002
1.881705160878767e+001	1.041954e-002	-3.512403e+000	-1.948125e+000	1.044753e-002
1.905171788541190e+001	1.043408e-002	-3.511036e+000	-1.930183e+000	1.045872e-002
1.928638416203613e+001	1.045073e-002	-3.509643e+000	-1.907730e+000	1.046989e-002
1.952105043866036e+001	1.046950e-002	-3.508222e+000	-1.880767e+000	1.048103e-002
1.975571671528459e+001	1.049039e-002	-3.506775e+000	-1.849292e+000	1.049215e-002
1.988380146915117e+001	1.050158e-002	-3.505971e+000	-1.829205e+000	1.049820e-002
2.001188622301775e+001	1.051239e-002	-3.505159e+000	-1.808702e+000	1.050426e-002
2.013997097688433e+001	1.052283e-002	-3.504339e+000	-1.787781e+000	1.051030e-002
2.026805573075091e+001	1.053290e-002	-3.503512e+000	-1.766443e+000	1.051634e-002
2.039614048461749e+001	1.054259e-002	-3.502676e+000	-1.744688e+000	1.052237e-002
2.052422523848407e+001	1.055191e-002	-3.501832e+000	-1.722516e+000	1.052839e-002
2.065230999235065e+001	1.056085e-002	-3.500980e+000	-1.699927e+000	1.053440e-002
2.089570636647369e+001	1.057531e-002	-3.499332e+000	-1.659536e+000	1.054581e-002
2.109494748986810e+001	1.058506e-002	-3.497957e+000	-1.628831e+000	1.055513e-002
2.120394969268480e+001	1.058957e-002	-3.497195e+000	-1.613337e+000	1.056022e-002
2.138072141381322e+001	1.059570e-002	-3.495941e+000	-1.590722e+000	1.056847e-002
2.166267592478697e+001	1.060268e-002	-3.493912e+000	-1.559076e+000	1.058158e-002
2.178844090715904e+001	1.060486e-002	-3.492995e+000	-1.546969e+000	1.058742e-002
2.195845845763830e+001	1.060711e-002	-3.491736e+000	-1.533606e+000	1.059531e-002
2.212136499317639e+001	1.060874e-002	-3.490513e+000	-1.523409e+000	1.060284e-002
2.233086671009448e+001	1.061048e-002	-3.488916e+000	-1.513312e+000	1.061252e-002
2.301756475282341e+001	1.061987e-002	-3.483507e+000	-1.494084e+000	1.064409e-002
2.318730038779417e+001	1.062441e-002	-3.482129e+000	-1.489762e+000	1.065186e-002
2.334831440108360e+001	1.062988e-002	-3.480805e+000	-1.484653e+000	1.065921e-002
2.346343349074398e+001	1.063453e-002	-3.479851e+000	-1.480175e+000	1.066446e-002
2.356997486835325e+001	1.063939e-002	-3.478960e+000	-1.475312e+000	1.066932e-002
2.367883908893396e+001	1.064492e-002	-3.478043e+000	-1.469309e+000	1.067427e-002
2.385539065815561e+001	1.065505e-002	-3.476540e+000	-1.457028e+000	1.068229e-002
2.413701529357096e+001	1.067392e-002	-3.474114e+000	-1.433003e+000	1.069504e-002
2.425620590293466e+001	1.068276e-002	-3.473077e+000	-1.420938e+000	1.070043e-002
2.434389839959354e+001	1.068952e-002	-3.472307e+000	-1.410857e+000	1.070439e-002
2.442488609451222e+001	1.069593e-002	-3.471591e+000	-1.400854e+000	1.070804e-002
2.449980736509515e+001	1.070196e-002	-3.470926e+000	-1.391050e+000	1.071142e-002
2.457810086273387e+001	1.070836e-002	-3.470227e+000	-1.380212e+000	1.071494e-002
2.469598416608980e+001	1.071810e-002	-3.469168e+000	-1.362988e+000	1.072024e-002
2.480570558192989e+001	1.072720e-002	-3.468176e+000	-1.346128e+000	1.072517e-002
2.508804071248535e+001	1.075021e-002	-3.465586e+000	-1.299192e+000	1.073782e-002
2.548479134209763e+001	1.077956e-002	-3.461880e+000	-1.229873e+000	1.075552e-002
2.573128021964271e+001	1.079487e-002	-3.459526e+000	-1.187156e+000	1.076647e-002
2.592504181751802e+001	1.080496e-002	-3.457648e+000	-1.155414e+000	1.077506e-002
2.614580080701347e+001	1.081423e-002	-3.455480e+000	-1.122104e+000	1.078482e-002
2.631725304491612e+001	1.081983e-002	-3.453771e+000	-1.099457e+000	1.079238e-002
2.659121138321161e+001	1.082611e-002	-3.451010e+000	-1.067407e+000	1.080442e-002
2.679650726160527e+001	1.082903e-002	-3.448912e+000	-1.047710e+000	1.081342e-002
2.703060679949059e+001	1.083108e-002	-3.446482e+000	-1.030743e+000	1.082365e-002
2.732071441563030e+001	1.083275e-002	-3.443421e+000	-1.015836e+000	1.083628e-002
2.745147444447832e+001	1.083324e-002	-3.442022e+000	-1.011687e+000	1.084196e-002
2.758223447332633e+001	1.083425e-002	-3.440614e+000	-1.007614e+000	1.084763e-002
2.771299450217435e+001	1.083577e-002	-3.439195e+000	-1.003616e+000	1.085329e-002
2.784375453102237e+001	1.083782e-002	-3.437765e+000	-9.996938e-001	1.085894e-002
2.797451455987038e+001	1.084039e-002	-3.436325e+000	-9.958467e-001	1.086457e-002
2.810527458871840e+001	1.084347e-002	-3.434875e+000	-9.920749e-001	1.087020e-002
2.823603461756641e+001	1.084708e-002	-3.433414e+000	-9.883785e-001	1.087582e-002
2.852815881270229e+001	1.085843e-002	-3.430112e+000	-9.758157e-001	1.088833e-002
2.882606735515257e+001	1.087413e-002	-3.426686e+000	-9.557261e-001	1.090104e-002
2.918607355523265e+001	1.089802e-002	-3.422487e+000	-9.224951e-001	1.091632e-002
2.946122508629336e+001	1.091888e-002	-3.419219e+000	-8.880314e-001	1.092795e-002
2.962355879301439e+001	1.093230e-002	-3.417270e+000	-8.635697e-001	1.093478e-002
2.978589249973541e+001	1.094523e-002	-3.415304e+000	-8.381942e-001	1.094160e-002
2.994822620645643e+001	1.095768e-002	-3.413322e+000	-8.119049e-001	1.094841e-002
3.011055991317745e+001	1.096965e-002	-3.411323e+000	-7.847020e-001	1.095519e-002
3.027289361989848e+001	1.098114e-002	-3.409309e+000	-7.565853e-001	1.096196e-002
3.043522732661950e+001	1.099214e-002	-3.407278e+000	-7.275549e-001	1.096872e-002
3.059756103334052e+001	1.100266e-002	-3.405231e+000	-6.976107e-001	1.097545e-002
3.086322299459117e+001	1.101468e-002	-3.401841e+000	-6.518378e-001	1.098644e-002
3.112888495584181e+001	1.102452e-002	-3.398403e+000	-6.119964e-001	1.099739e-002
3.139454691709245e+001	1.103218e-002	-3.394917e+000	-5.780865e-001	1.100828e-002
3.166020887834309e+001	1.103766e-002	-3.391382e+000	-5.501080e-001	1.101913e-002
3.192587083959374e+001	1.104095e-002	-3.387798e+000	-5.280610e-001	1.102993e-002
3.219153280084438e+001	1.104206e-002	-3.384167e+000	-5.119454e-001	1.104069e-002
3.245719476209502e+001	1.104099e-002	-3.380487e+000	-5.017614e-001	1.105139e-002
3.260168523808618e+001	1.104154e-002	-3.378468e+000	-4.980844e-001	1.105720e-002
3.274617571407735e+001	1.104290e-002	-3.376435e+000	-4.939888e-001	1.106299e-002
3.289066619006851e+001	1.104506e-002	-3.374388e+000	-4.894747e-001	1.106876e-002
3.303515666605968e+001	1.104803e-002	-3.372326e+000	-4.845420e-001	1.107452e-002
3.317964714205084e+001	1.105181e-002	-3.370251e+000	-4.791908e-001	1.108027e-002
3.332413761804200e+001	1.105639e-002	-3.368162e+000	-4.734210e-001	1.108600e-002
3.346862809403316e+001	1.106178e-002	-3.366059e+000	-4.672327e-001	1.109172e-002
3.375024069671760e+001	1.107548e-002	-3.361918e+000	-4.483321e-001	1.110282e-002
3.410087550801261e+001	1.109720e-002	-3.356704e+000	-4.164835e-001	1.111656e-002
3.436723292787237e+001	1.111628e-002	-3.352687e+000	-3.837573e-001	1.112694e-002
3.462872546581713e+001	1.113615e-002	-3.348700e+000	-3.457288e-001	1.113709e-002
3.483361395002493e+001	1.115180e-002	-3.345542e+000	-3.122598e-001	1.114500e-002
3.495805694763063e+001	1.116136e-002	-3.343612e+000	-2.902994e-001	1.114979e-002
3.508249994523634e+001	1.117038e-002	-3.341672e+000	-2.683590e-001	1.115458e-002
3.520694294284203e+001	1.117887e-002	-3.339722e+000	-2.464385e-001	1.115934e-002
3.533138594044774e+001	1.118682e-002	-3.337761e+000	-2.245379e-001	1.116410e-002
3.545582893805344e+001	1.119424e-002	-3.335790e+000	-2.026574e-001	1.116885e-002
3.558027193565914e+001	1.120112e-002	-3.333809e+000	-1.807967e-001	1.117358e-002
3.570471493326484e+001	1.120747e-002	-3.331817e+000	-1.589560e-001	1.117831e-002
3.586530029955758e+001	1.121437e-002	-3.329230e+000	-1.325458e-001	1.118439e-002
3.595575841901359e+001	1.121770e-002	-3.327765e+000	-1.184583e-001	1.118780e-002
3.607060316282431e+001	1.122136e-002	-3.325894e+000	-1.016147e-001	1.119213e-002
3.625667926730465e+001	1.122595e-002	-3.322844e+000	-7.667530e-002	1.119913e-002
3.645971994435820e+001	1.122925e-002	-3.319494e+000	-5.225467e-002	1.120673e-002
3.656035377962478e+001	1.123029e-002	-3.317824e+000	-4.149874e-002	1.121048e-002
3.663543401525952e+001	1.123086e-002	-3.316572e+000	-3.431966e-002	1.121328e-002
3.672434286638497e+001	1.123132e-002	-3.315083e+000	-2.658397e-002	1.121659e-002
3.682095287613795e+001	1.123159e-002	-3.313459e+000	-1.900927e-002	1.122017e-002
3.693204370437972e+001	1.123170e-002	-3.311584e+000	-1.124182e-002	1.122429e-002
3.701672952547520e+001	1.123167e-002	-3.310149e+000	-6.005916e-003	1.122742e-002
3.711133787940480e+001	1.123157e-002	-3.308539e+000	-8.467548e-004	1.123091e-002
3.719651144969927e+001	1.123147e-002	-3.307085e+000	3.236407e-003	1.123405e-002
3.731331542627365e+001	1.123138e-002	-3.305080e+000	8.013459e-003	1.123834e-002
3.750250375009402e+001	1.123157e-002	-3.301812e+000	1.449826e-002	1.124527e-002
3.773770363125930e+001	1.123291e-002	-3.297724e+000	2.150011e-002	1.125385e-002
3.790613353878870e+001	1.123494e-002	-3.294773e+000	2.625351e-002	1.125997e-002
3.798348372923093e+001	1.123625e-002	-3.293411e+000	2.856600e-002	1.126277e-002
3.805888346053413e+001	1.123776e-002	-3.292078e+000	3.101917e-002	1.126550e-002
3.817783787186581e+001	1.124065e-002	-3.289968e+000	3.529087e-002	1.126979e-002
3.825402380270334e+001	1.124284e-002	-3.288613e+000	3.836994e-002	1.127254e-002
3.834855396097080e+001	1.124595e-002	-3.286925e+000	4.269935e-002	1.127594e-002
3.843398362091798e+001	1.124911e-002	-3.285394e+000	4.715087e-002	1.127900e-002
3.855069270159115e+001	1.125400e-002	-3.283293e+000	5.432142e-002	1.128318e-002
3.873973037890219e+001	1.126323e-002	-3.279874e+000	6.823548e-002	1.128993e-002
3.892040562928111e+001	1.127347e-002	-3.276588e+000	8.393608e-002	1.129635e-002
3.901844038674580e+001	1.127953e-002	-3.274796e+000	9.371268e-002	1.129982e-002
3.909221228147530e+001	1.128429e-002	-3.273443e+000	1.018582e-001	1.130243e-002
3.918326968549417e+001	1.129038e-002	-3.271767e+000	1.126840e-001	1.130565e-002
3.927474037530984e+001	1.129670e-002	-3.270079e+000	1.243456e-001	1.130887e-002
3.938774000201021e+001	1.130471e-002	-3.267985e+000	1.397416e-001	1.131284e-002
3.957522279631769e+001	1.131831e-002	-3.264493e+000	1.675507e-001	1.131941e-002
3.978169026922487e+001	1.133332e-002	-3.260619e+000	2.012189e-001	1.132661e-002
4.015005626856202e+001	1.135853e-002	-3.253640e+000	2.656808e-001	1.133937e-002
4.027374325316344e+001	1.136628e-002	-3.251277e+000	2.884608e-001	1.134363e-002
4.039743023776487e+001	1.137333e-002	-3.248902e+000	3.105879e-001	1.134787e-002
